
T1C08 141:726 SEGGER J-Link V6.30h Log File (0003ms, 0060ms total)
T1C08 141:726 DLL Compiled: Mar 16 2018 18:02:51 (0003ms, 0060ms total)
T1C08 141:726 Logging started @ 2018-08-18 21:19 (0003ms, 0060ms total)
T1C08 141:729 JLINK_SetWarnOutHandler(...) (0000ms, 0060ms total)
T1C08 141:729 JLINK_OpenEx(...)
Firmware: J-Link ARM-OB STM32 compiled Aug 22 2012 19:52:04
Hardware: V7.00
S/N: 20090928
Feature(s): RDI,FlashDL,FlashBP,JFlash,GDBFull
TELNET listener socket opened on port 19021WEBSRV 
Starting webserver (0017ms, 0077ms total)
T1C08 141:729 WEBSRV Webserver running on local port 19080 (0017ms, 0077ms total)
T1C08 141:729   returns O.K. (0017ms, 0077ms total)
T1C08 141:746 JLINK_GetEmuCaps()  returns 0x88EA5833 (0000ms, 0077ms total)
T1C08 141:747 JLINK_TIF_GetAvailable(...) (0001ms, 0078ms total)
T1C08 141:748 JLINK_SetErrorOutHandler(...) (0000ms, 0078ms total)
T1C08 141:748 JLINK_ExecCommand("ProjectFile = "E:\chke\doc&pro\air_cleaner\Air_cleaner-master\USER\JLinkSettings.ini"", ...).   returns 0x00 (0080ms, 0158ms total)
T1C08 141:830 JLINK_ExecCommand("Device = STM32F103RE", ...). Device "STM32F103RE" selected.  returns 0x00 (0004ms, 0162ms total)
T1C08 141:834 JLINK_ExecCommand("DisableConnectionTimeout", ...).   returns 0x01 (0000ms, 0162ms total)
T1C08 141:834 JLINK_GetHardwareVersion()  returns 0x11170 (0000ms, 0162ms total)
T1C08 141:834 JLINK_GetDLLVersion()  returns 63008 (0000ms, 0162ms total)
T1C08 141:834 JLINK_GetFirmwareString(...) (0000ms, 0162ms total)
T1C08 141:838 JLINK_GetDLLVersion()  returns 63008 (0000ms, 0162ms total)
T1C08 141:838 JLINK_GetCompileDateTime() (0000ms, 0162ms total)
T1C08 141:840 JLINK_GetFirmwareString(...) (0000ms, 0162ms total)
T1C08 141:841 JLINK_GetHardwareVersion()  returns 0x11170 (0000ms, 0162ms total)
T1C08 141:847 JLINK_TIF_Select(JLINKARM_TIF_SWD)  returns 0x00 (0004ms, 0166ms total)
T1C08 141:851 JLINK_SetSpeed(5000) (0001ms, 0167ms total)
T1C08 141:852 JLINK_GetId() >0x10B TIF>Found SW-DP with ID 0x1BA01477 >0x0D TIF> >0x28 TIF> >0x0D TIF> >0x28 TIF> >0x0D TIF> >0x28 TIF> >0x0D TIF> >0x28 TIF> >0x0D TIF> >0x21 TIF> >0x0D TIF> >0x28 TIF> >0x0D TIF> >0x28 TIF> >0x0D TIF> >0x28 TIF> >0x0D TIF> >0x21 TIF> >0x0D TIF> >0x21 TIF> >0x0D TIF> >0x28 TIF> >0x0D TIF> >0x21 TIF> >0x0D TIF> >0x21 TIF> >0x0D TIF> >0x28 TIF> >0x0D TIF> >0x28 TIF> >0x0D TIF> >0x28 TIF> >0x0D TIF> >0x21 TIF> >0x0D TIF> >0x21 TIF> >0x0D TIF> >0x28 TIF> >0x0D TIF> >0x21 TIF>
 >0x0D TIF> >0x21 TIF> >0x0D TIF> >0x28 TIF> >0x0D TIF> >0x21 TIF> >0x0D TIF> >0x21 TIF> >0x0D TIF> >0x28 TIF> >0x0D TIF> >0x21 TIF> >0x0D TIF> >0x21 TIF> >0x0D TIF> >0x28 TIF> >0x0D TIF> >0x21 TIF> >0x0D TIF> >0x21 TIF> >0x10B TIF>Found SW-DP with ID 0x1BA01477 >0x0D TIF> >0x28 TIF> >0x0D TIF> >0x28 TIF> >0x0D TIF> >0x28 TIF> >0x0D TIF> >0x28 TIF> >0x0D TIF> >0x21 TIF> >0x0D TIF> >0x28 TIF>Scanning AP map to find all available APs >0x0D TIF> >0x28 TIF> >0x0D TIF> >0x21 TIF> >0x0D TIF> >0x21 TIF>
 >0x0D TIF> >0x28 TIF> >0x0D TIF> >0x21 TIF> >0x0D TIF> >0x21 TIF>AP[1]: Stopped AP scan as end of AP map has been reachedAP[0]: AHB-AP (IDR: 0x14770011)Iterating through AP map to find AHB-AP to use >0x42 TIF> >0x28 TIF> >0x0D TIF> >0x28 TIF> >0x0D TIF> >0x21 TIF> >0x0D TIF> >0x21 TIF> >0x42 TIF> >0x28 TIF> >0x0D TIF> >0x28 TIF> >0x0D TIF> >0x28 TIF> >0x0D TIF> >0x21 TIF> >0x0D TIF> >0x21 TIF>AP[0]: Core foundAP[0]: AHB-AP ROM base: 0xE00FF000 >0x0D TIF> >0x28 TIF> >0x0D TIF> >0x28 TIF> >0x0D TIF>
 >0x28 TIF> >0x0D TIF> >0x21 TIF> >0x0D TIF> >0x21 TIF>CPUID register: 0x411FC231. Implementer code: 0x41 (ARM)Found Cortex-M3 r1p1, Little endian. -- CPU_ReadMem(4 bytes @ 0xE000EDF0) -- CPU_WriteMem(4 bytes @ 0xE000EDF0) -- CPU_ReadMem(4 bytes @ 0xE0002000)FPUnit: 6 code (BP) slots and 2 literal slots -- CPU_ReadMem(4 bytes @ 0xE000EDFC) -- CPU_WriteMem(4 bytes @ 0xE000EDFC) -- CPU_ReadMem(4 bytes @ 0xE0001000) -- CPU_WriteMem(4 bytes @ 0xE0001000) -- CPU_ReadMem(4 bytes @ 0xE000ED88)
 -- CPU_WriteMem(4 bytes @ 0xE000ED88) -- CPU_ReadMem(4 bytes @ 0xE000ED88) -- CPU_WriteMem(4 bytes @ 0xE000ED88)CoreSight components:ROMTbl[0] @ E00FF000 -- CPU_ReadMem(16 bytes @ 0xE00FF000) -- CPU_ReadMem(16 bytes @ 0xE000EFF0) -- CPU_ReadMem(16 bytes @ 0xE000EFE0)ROMTbl[0][0]: E000E000, CID: B105E00D, PID: 001BB000 SCS -- CPU_ReadMem(16 bytes @ 0xE0001FF0) -- CPU_ReadMem(16 bytes @ 0xE0001FE0)ROMTbl[0][1]: E0001000, CID: B105E00D, PID: 001BB002 DWT -- CPU_ReadMem(16 bytes @ 0xE0002FF0)
 -- CPU_ReadMem(16 bytes @ 0xE0002FE0)ROMTbl[0][2]: E0002000, CID: B105E00D, PID: 000BB003 FPB -- CPU_ReadMem(16 bytes @ 0xE0000FF0) -- CPU_ReadMem(16 bytes @ 0xE0000FE0)ROMTbl[0][3]: E0000000, CID: B105E00D, PID: 001BB001 ITM -- CPU_ReadMem(16 bytes @ 0xE00FF010) -- CPU_ReadMem(16 bytes @ 0xE0040FF0) -- CPU_ReadMem(16 bytes @ 0xE0040FE0)ROMTbl[0][4]: E0040000, CID: B105900D, PID: 001BB923 TPIU-Lite -- CPU_ReadMem(16 bytes @ 0xE0041FF0) -- CPU_ReadMem(16 bytes @ 0xE0041FE0)
ROMTbl[0][5]: E0041000, CID: B105900D, PID: 101BB924 ETM-M3 >0x0D TIF> >0x21 TIF>  returns 0x1BA01477 (0321ms, 0488ms total)
T1C08 142:174 JLINK_GetDLLVersion()  returns 63008 (0000ms, 0488ms total)
T1C08 142:174 JLINK_CORE_GetFound()  returns 0x30000FF (0000ms, 0488ms total)
T1C08 142:174 JLINK_GetDebugInfo(0x100 = JLINKARM_ROM_TABLE_ADDR_INDEX) -- Value=0xE00FF000  returns 0x00 (0000ms, 0488ms total)
T1C08 142:177 JLINK_GetDebugInfo(0x100 = JLINKARM_ROM_TABLE_ADDR_INDEX) -- Value=0xE00FF000  returns 0x00 (0000ms, 0488ms total)
T1C08 142:177 JLINK_GetDebugInfo(0x101 = JLINKARM_DEBUG_INFO_ETM_ADDR_INDEX) -- Value=0xE0041000  returns 0x00 (0000ms, 0488ms total)
T1C08 142:178 JLINK_ReadMemEx(0xE0041FD0, 0x0020 Bytes, ..., Flags = 0x02000004) -- CPU_ReadMem(32 bytes @ 0xE0041FD0) - Data: 04 00 00 00 00 00 00 00 00 00 00 00 00 00 00 00 ...  returns 0x20 (0001ms, 0489ms total)
T1C08 142:179 JLINK_GetDebugInfo(0x102 = JLINKARM_DEBUG_INFO_MTB_ADDR_INDEX) -- Value=0x00000000  returns 0x00 (0000ms, 0489ms total)
T1C08 142:179 JLINK_GetDebugInfo(0x103 = JLINKARM_DEBUG_INFO_TPIU_ADDR_INDEX) -- Value=0xE0040000  returns 0x00 (0000ms, 0489ms total)
T1C08 142:179 JLINK_GetDebugInfo(0x104 = JLINKARM_DEBUG_INFO_ITM_ADDR_INDEX) -- Value=0xE0000000  returns 0x00 (0000ms, 0489ms total)
T1C08 142:179 JLINK_GetDebugInfo(0x105 = JLINKARM_DEBUG_INFO_DWT_ADDR_INDEX) -- Value=0xE0001000  returns 0x00 (0000ms, 0489ms total)
T1C08 142:179 JLINK_GetDebugInfo(0x106 = JLINKARM_DEBUG_INFO_FPB_ADDR_INDEX) -- Value=0xE0002000  returns 0x00 (0001ms, 0490ms total)
T1C08 142:180 JLINK_GetDebugInfo(0x107 = JLINKARM_DEBUG_INFO_NVIC_ADDR_INDEX) -- Value=0xE000E000  returns 0x00 (0000ms, 0490ms total)
T1C08 142:180 JLINK_GetDebugInfo(0x10C = JLINKARM_DEBUG_INFO_DBG_ADDR_INDEX) -- Value=0xE000EDF0  returns 0x00 (0000ms, 0490ms total)
T1C08 142:180 JLINK_GetDebugInfo(0x01 = Unknown) -- Value=0x00000000  returns 0x00 (0000ms, 0490ms total)
T1C08 142:180 JLINK_ReadMemU32(0xE000ED00, 0x0001 Items, ...) -- CPU_ReadMem(4 bytes @ 0xE000ED00) - Data: 31 C2 1F 41  returns 0x01 (0001ms, 0491ms total)
T1C08 142:181 JLINK_GetDebugInfo(0x10F = JLINKARM_DEBUG_INFO_HAS_CORTEX_M_SECURITY_EXT_INDEX) -- Value=0x00000000  returns 0x00 (0000ms, 0491ms total)
T1C08 142:181 JLINK_SetResetType(JLINKARM_CM3_RESET_TYPE_NORMAL)  returns JLINKARM_CM3_RESET_TYPE_NORMAL (0000ms, 0491ms total)
T1C08 142:181 JLINK_Reset() -- CPU is running -- CPU_WriteMem(4 bytes @ 0xE000EDF0) -- CPU is running -- CPU_WriteMem(4 bytes @ 0xE000EDFC)Reset: Halt core after reset via DEMCR.VC_CORERESET. >0x35 TIF>Reset: Reset device via AIRCR.SYSRESETREQ. -- CPU is running -- CPU_WriteMem(4 bytes @ 0xE000ED0C) >0x0D TIF> >0x28 TIF> -- CPU_ReadMem(4 bytes @ 0xE000EDF0) -- CPU_ReadMem(4 bytes @ 0xE000EDF0) -- CPU is running -- CPU_WriteMem(4 bytes @ 0xE000EDF0) -- CPU is running -- CPU_WriteMem(4 bytes @ 0xE000EDFC)
 -- CPU_ReadMem(4 bytes @ 0xE000EDF0) -- CPU_WriteMem(4 bytes @ 0xE0002000) -- CPU_ReadMem(4 bytes @ 0xE000EDFC) -- CPU_ReadMem(4 bytes @ 0xE0001000) (0083ms, 0574ms total)
T1C08 142:264 JLINK_Halt()  returns 0x00 (0000ms, 0574ms total)
T1C08 142:264 JLINK_ReadMemU32(0xE000EDF0, 0x0001 Items, ...) -- CPU_ReadMem(4 bytes @ 0xE000EDF0) - Data: 03 00 03 00  returns 0x01 (0001ms, 0575ms total)
T1C08 142:265 JLINK_WriteU32(0xE000EDF0, 0xA05F0003) -- CPU_WriteMem(4 bytes @ 0xE000EDF0)  returns 0x00 (0001ms, 0576ms total)
T1C08 142:266 JLINK_WriteU32(0xE000EDFC, 0x01000000) -- CPU_WriteMem(4 bytes @ 0xE000EDFC)  returns 0x00 (0001ms, 0577ms total)
T1C08 142:282 JLINK_GetHWStatus(...)  returns 0x00 (0001ms, 0578ms total)
T1C08 142:293 JLINK_GetNumBPUnits(Type = 0xFFFFFF00)  returns 0x06 (0000ms, 0578ms total)
T1C08 142:293 JLINK_GetNumBPUnits(Type = 0xF0)  returns 0x2000 (0000ms, 0578ms total)
T1C08 142:293 JLINK_GetNumWPUnits()  returns 0x04 (0000ms, 0578ms total)
T1C08 142:303 JLINK_GetSpeed()  returns 0xFA0 (0000ms, 0578ms total)
T1C08 142:309 JLINK_ReadMemU32(0xE000E004, 0x0001 Items, ...) -- CPU_ReadMem(4 bytes @ 0xE000E004) - Data: 01 00 00 00  returns 0x01 (0002ms, 0580ms total)
T1C08 142:311 JLINK_ReadMemU32(0xE000E004, 0x0001 Items, ...) -- CPU_ReadMem(4 bytes @ 0xE000E004) - Data: 01 00 00 00  returns 0x01 (0001ms, 0581ms total)
T1C08 142:312 JLINK_WriteMemEx(0xE0001000, 0x001C Bytes, ..., Flags = 0x02000004) - Data: 01 00 00 00 00 00 00 00 00 00 00 00 00 00 00 00 ... -- CPU_WriteMem(28 bytes @ 0xE0001000)  returns 0x1C (0002ms, 0583ms total)
T1C08 142:314 JLINK_Halt()  returns 0x00 (0000ms, 0583ms total)
T1C08 142:314 JLINK_IsHalted()  returns TRUE (0000ms, 0583ms total)
T1C08 142:319 JLINK_WriteMem(0x20000000, 0x0164 Bytes, ...) - Data: 00 BE 0A E0 0D 78 2D 06 68 40 08 24 40 00 00 D3 ... -- CPU_WriteMem(356 bytes @ 0x20000000)  returns 0x164 (0005ms, 0588ms total)
T1C08 142:324 JLINK_WriteReg(R0, 0x08000000)  returns 0x00 (0001ms, 0589ms total)
T1C08 142:325 JLINK_WriteReg(R1, 0x00B71B00)  returns 0x00 (0000ms, 0589ms total)
T1C08 142:325 JLINK_WriteReg(R2, 0x00000001)  returns 0x00 (0000ms, 0589ms total)
T1C08 142:325 JLINK_WriteReg(R3, 0x00000000)  returns 0x00 (0000ms, 0589ms total)
T1C08 142:325 JLINK_WriteReg(R4, 0x00000000)  returns 0x00 (0000ms, 0589ms total)
T1C08 142:325 JLINK_WriteReg(R5, 0x00000000)  returns 0x00 (0000ms, 0589ms total)
T1C08 142:325 JLINK_WriteReg(R6, 0x00000000)  returns 0x00 (0000ms, 0589ms total)
T1C08 142:325 JLINK_WriteReg(R7, 0x00000000)  returns 0x00 (0000ms, 0589ms total)
T1C08 142:325 JLINK_WriteReg(R8, 0x00000000)  returns 0x00 (0000ms, 0589ms total)
T1C08 142:325 JLINK_WriteReg(R9, 0x20000160)  returns 0x00 (0000ms, 0589ms total)
T1C08 142:325 JLINK_WriteReg(R10, 0x00000000)  returns 0x00 (0000ms, 0589ms total)
T1C08 142:325 JLINK_WriteReg(R11, 0x00000000)  returns 0x00 (0000ms, 0589ms total)
T1C08 142:325 JLINK_WriteReg(R12, 0x00000000)  returns 0x00 (0000ms, 0589ms total)
T1C08 142:325 JLINK_WriteReg(R13 (SP), 0x20001000)  returns 0x00 (0000ms, 0589ms total)
T1C08 142:325 JLINK_WriteReg(R14, 0x20000001)  returns 0x00 (0000ms, 0589ms total)
T1C08 142:325 JLINK_WriteReg(R15 (PC), 0x20000038)  returns 0x00 (0000ms, 0589ms total)
T1C08 142:325 JLINK_WriteReg(XPSR, 0x01000000)  returns 0x00 (0000ms, 0589ms total)
T1C08 142:325 JLINK_WriteReg(MSP, 0x20001000)  returns 0x00 (0000ms, 0589ms total)
T1C08 142:325 JLINK_WriteReg(PSP, 0x20001000)  returns 0x00 (0000ms, 0589ms total)
T1C08 142:325 JLINK_WriteReg(CFBP, 0x00000000)  returns 0x00 (0000ms, 0589ms total)
T1C08 142:325 JLINK_SetBPEx(Addr = 0x20000000, Type = 0xFFFFFFF2) -- CPU_ReadMem(2 bytes @ 0x20000000)  returns 0x00000001 (0001ms, 0590ms total)
T1C08 142:326 JLINK_Go() -- CPU_WriteMem(2 bytes @ 0x20000000) -- CPU_ReadMem(4 bytes @ 0xE0001000) -- CPU_WriteMem(4 bytes @ 0xE0002008) -- CPU_WriteMem(4 bytes @ 0xE000200C) -- CPU_WriteMem(4 bytes @ 0xE0002010) -- CPU_WriteMem(4 bytes @ 0xE0002014) -- CPU_WriteMem(4 bytes @ 0xE0002018) -- CPU_WriteMem(4 bytes @ 0xE000201C) -- CPU_WriteMem(4 bytes @ 0xE0001004) (0012ms, 0602ms total)
T1C08 142:338 JLINK_IsHalted() -- CPU_ReadMem(2 bytes @ 0x20000000)  returns TRUE (0004ms, 0606ms total)
T1C08 142:342 JLINK_ReadReg(R15 (PC))  returns 0x20000000 (0000ms, 0602ms total)
T1C08 142:342 JLINK_ClrBPEx(BPHandle = 0x00000001)  returns 0x00 (0000ms, 0602ms total)
T1C08 142:342 JLINK_ReadReg(R0)  returns 0x00000000 (0000ms, 0602ms total)
T1C08 142:343 JLINK_WriteReg(R0, 0x08000000)  returns 0x00 (0000ms, 0602ms total)
T1C08 142:343 JLINK_WriteReg(R1, 0x00B71B00)  returns 0x00 (0000ms, 0602ms total)
T1C08 142:343 JLINK_WriteReg(R2, 0x00000001)  returns 0x00 (0000ms, 0602ms total)
T1C08 142:343 JLINK_WriteReg(R3, 0x00000000)  returns 0x00 (0000ms, 0602ms total)
T1C08 142:343 JLINK_WriteReg(R4, 0x00000000)  returns 0x00 (0000ms, 0602ms total)
T1C08 142:343 JLINK_WriteReg(R5, 0x00000000)  returns 0x00 (0000ms, 0602ms total)
T1C08 142:343 JLINK_WriteReg(R6, 0x00000000)  returns 0x00 (0000ms, 0602ms total)
T1C08 142:343 JLINK_WriteReg(R7, 0x00000000)  returns 0x00 (0000ms, 0602ms total)
T1C08 142:343 JLINK_WriteReg(R8, 0x00000000)  returns 0x00 (0000ms, 0602ms total)
T1C08 142:343 JLINK_WriteReg(R9, 0x20000160)  returns 0x00 (0000ms, 0602ms total)
T1C08 142:343 JLINK_WriteReg(R10, 0x00000000)  returns 0x00 (0000ms, 0602ms total)
T1C08 142:343 JLINK_WriteReg(R11, 0x00000000)  returns 0x00 (0000ms, 0602ms total)
T1C08 142:343 JLINK_WriteReg(R12, 0x00000000)  returns 0x00 (0000ms, 0602ms total)
T1C08 142:343 JLINK_WriteReg(R13 (SP), 0x20001000)  returns 0x00 (0001ms, 0603ms total)
T1C08 142:344 JLINK_WriteReg(R14, 0x20000001)  returns 0x00 (0000ms, 0603ms total)
T1C08 142:344 JLINK_WriteReg(R15 (PC), 0x2000007C)  returns 0x00 (0000ms, 0603ms total)
T1C08 142:344 JLINK_WriteReg(XPSR, 0x01000000)  returns 0x00 (0000ms, 0603ms total)
T1C08 142:344 JLINK_WriteReg(MSP, 0x20001000)  returns 0x00 (0000ms, 0603ms total)
T1C08 142:344 JLINK_WriteReg(PSP, 0x20001000)  returns 0x00 (0000ms, 0603ms total)
T1C08 142:344 JLINK_WriteReg(CFBP, 0x00000000)  returns 0x00 (0000ms, 0603ms total)
T1C08 142:344 JLINK_SetBPEx(Addr = 0x20000000, Type = 0xFFFFFFF2)  returns 0x00000002 (0000ms, 0603ms total)
T1C08 142:344 JLINK_Go() -- CPU_ReadMem(4 bytes @ 0xE0001000) (0003ms, 0606ms total)
T1C08 142:347 JLINK_IsHalted()  returns FALSE (0001ms, 0607ms total)
T1C08 142:375 JLINK_IsHalted() -- CPU_ReadMem(2 bytes @ 0x20000000)  returns TRUE (0005ms, 0611ms total)
T1C08 142:380 JLINK_ReadReg(R15 (PC))  returns 0x20000000 (0000ms, 0606ms total)
T1C08 142:380 JLINK_ClrBPEx(BPHandle = 0x00000002)  returns 0x00 (0000ms, 0606ms total)
T1C08 142:380 JLINK_ReadReg(R0)  returns 0x00000000 (0000ms, 0606ms total)
T1C08 142:431 JLINK_WriteReg(R0, 0x00000001)  returns 0x00 (0000ms, 0606ms total)
T1C08 142:431 JLINK_WriteReg(R1, 0x00B71B00)  returns 0x00 (0000ms, 0606ms total)
T1C08 142:431 JLINK_WriteReg(R2, 0x00000001)  returns 0x00 (0000ms, 0606ms total)
T1C08 142:431 JLINK_WriteReg(R3, 0x00000000)  returns 0x00 (0001ms, 0607ms total)
T1C08 142:432 JLINK_WriteReg(R4, 0x00000000)  returns 0x00 (0000ms, 0607ms total)
T1C08 142:432 JLINK_WriteReg(R5, 0x00000000)  returns 0x00 (0000ms, 0607ms total)
T1C08 142:432 JLINK_WriteReg(R6, 0x00000000)  returns 0x00 (0000ms, 0607ms total)
T1C08 142:432 JLINK_WriteReg(R7, 0x00000000)  returns 0x00 (0000ms, 0607ms total)
T1C08 142:432 JLINK_WriteReg(R8, 0x00000000)  returns 0x00 (0000ms, 0607ms total)
T1C08 142:432 JLINK_WriteReg(R9, 0x20000160)  returns 0x00 (0000ms, 0607ms total)
T1C08 142:432 JLINK_WriteReg(R10, 0x00000000)  returns 0x00 (0000ms, 0607ms total)
T1C08 142:432 JLINK_WriteReg(R11, 0x00000000)  returns 0x00 (0000ms, 0607ms total)
T1C08 142:432 JLINK_WriteReg(R12, 0x00000000)  returns 0x00 (0000ms, 0607ms total)
T1C08 142:432 JLINK_WriteReg(R13 (SP), 0x20001000)  returns 0x00 (0000ms, 0607ms total)
T1C08 142:432 JLINK_WriteReg(R14, 0x20000001)  returns 0x00 (0000ms, 0607ms total)
T1C08 142:432 JLINK_WriteReg(R15 (PC), 0x2000006A)  returns 0x00 (0000ms, 0607ms total)
T1C08 142:432 JLINK_WriteReg(XPSR, 0x01000000)  returns 0x00 (0000ms, 0607ms total)
T1C08 142:432 JLINK_WriteReg(MSP, 0x20001000)  returns 0x00 (0000ms, 0607ms total)
T1C08 142:432 JLINK_WriteReg(PSP, 0x20001000)  returns 0x00 (0000ms, 0607ms total)
T1C08 142:432 JLINK_WriteReg(CFBP, 0x00000000)  returns 0x00 (0000ms, 0607ms total)
T1C08 142:432 JLINK_SetBPEx(Addr = 0x20000000, Type = 0xFFFFFFF2)  returns 0x00000003 (0001ms, 0608ms total)
T1C08 142:433 JLINK_Go() -- CPU_ReadMem(4 bytes @ 0xE0001000) (0003ms, 0611ms total)
T1C08 142:436 JLINK_IsHalted() -- CPU_ReadMem(2 bytes @ 0x20000000)  returns TRUE (0005ms, 0616ms total)
T1C08 142:441 JLINK_ReadReg(R15 (PC))  returns 0x20000000 (0000ms, 0611ms total)
T1C08 142:441 JLINK_ClrBPEx(BPHandle = 0x00000003)  returns 0x00 (0000ms, 0611ms total)
T1C08 142:441 JLINK_ReadReg(R0)  returns 0x00000000 (0000ms, 0611ms total)
T1C08 142:449 JLINK_WriteMem(0x20000000, 0x0164 Bytes, ...) - Data: 00 BE 0A E0 0D 78 2D 06 68 40 08 24 40 00 00 D3 ... -- CPU_WriteMem(356 bytes @ 0x20000000)  returns 0x164 (0005ms, 0616ms total)
T1C08 142:454 JLINK_WriteReg(R0, 0x08000000)  returns 0x00 (0000ms, 0616ms total)
T1C08 142:454 JLINK_WriteReg(R1, 0x00B71B00)  returns 0x00 (0000ms, 0616ms total)
T1C08 142:454 JLINK_WriteReg(R2, 0x00000002)  returns 0x00 (0000ms, 0616ms total)
T1C08 142:454 JLINK_WriteReg(R3, 0x00000000)  returns 0x00 (0000ms, 0616ms total)
T1C08 142:454 JLINK_WriteReg(R4, 0x00000000)  returns 0x00 (0000ms, 0616ms total)
T1C08 142:454 JLINK_WriteReg(R5, 0x00000000)  returns 0x00 (0000ms, 0616ms total)
T1C08 142:454 JLINK_WriteReg(R6, 0x00000000)  returns 0x00 (0000ms, 0616ms total)
T1C08 142:454 JLINK_WriteReg(R7, 0x00000000)  returns 0x00 (0000ms, 0616ms total)
T1C08 142:454 JLINK_WriteReg(R8, 0x00000000)  returns 0x00 (0000ms, 0616ms total)
T1C08 142:454 JLINK_WriteReg(R9, 0x20000160)  returns 0x00 (0000ms, 0616ms total)
T1C08 142:454 JLINK_WriteReg(R10, 0x00000000)  returns 0x00 (0000ms, 0616ms total)
T1C08 142:454 JLINK_WriteReg(R11, 0x00000000)  returns 0x00 (0000ms, 0616ms total)
T1C08 142:454 JLINK_WriteReg(R12, 0x00000000)  returns 0x00 (0000ms, 0616ms total)
T1C08 142:454 JLINK_WriteReg(R13 (SP), 0x20001000)  returns 0x00 (0000ms, 0616ms total)
T1C08 142:454 JLINK_WriteReg(R14, 0x20000001)  returns 0x00 (0000ms, 0616ms total)
T1C08 142:454 JLINK_WriteReg(R15 (PC), 0x20000038)  returns 0x00 (0001ms, 0617ms total)
T1C08 142:455 JLINK_WriteReg(XPSR, 0x01000000)  returns 0x00 (0000ms, 0617ms total)
T1C08 142:455 JLINK_WriteReg(MSP, 0x20001000)  returns 0x00 (0000ms, 0617ms total)
T1C08 142:455 JLINK_WriteReg(PSP, 0x20001000)  returns 0x00 (0000ms, 0617ms total)
T1C08 142:455 JLINK_WriteReg(CFBP, 0x00000000)  returns 0x00 (0000ms, 0617ms total)
T1C08 142:455 JLINK_SetBPEx(Addr = 0x20000000, Type = 0xFFFFFFF2) -- CPU_ReadMem(2 bytes @ 0x20000000)  returns 0x00000004 (0001ms, 0618ms total)
T1C08 142:456 JLINK_Go() -- CPU_WriteMem(2 bytes @ 0x20000000) -- CPU_ReadMem(4 bytes @ 0xE0001000) (0004ms, 0622ms total)
T1C08 142:460 JLINK_IsHalted() -- CPU_ReadMem(2 bytes @ 0x20000000)  returns TRUE (0005ms, 0627ms total)
T1C08 142:465 JLINK_ReadReg(R15 (PC))  returns 0x20000000 (0000ms, 0622ms total)
T1C08 142:465 JLINK_ClrBPEx(BPHandle = 0x00000004)  returns 0x00 (0000ms, 0622ms total)
T1C08 142:465 JLINK_ReadReg(R0)  returns 0x00000000 (0000ms, 0622ms total)
T1C08 142:465 JLINK_WriteMem(0x20000164, 0x029C Bytes, ...) - Data: 28 23 00 20 29 4A 00 08 F9 03 00 08 FB 03 00 08 ... -- CPU_WriteMem(668 bytes @ 0x20000164)  returns 0x29C (0009ms, 0631ms total)
T1C08 142:474 JLINK_WriteMem(0x20000400, 0x0164 Bytes, ...) - Data: 47 48 06 F0 8B F8 00 21 45 48 05 F0 F3 FD 26 E0 ... -- CPU_WriteMem(356 bytes @ 0x20000400)  returns 0x164 (0005ms, 0636ms total)
T1C08 142:479 JLINK_WriteReg(R0, 0x08000000)  returns 0x00 (0000ms, 0636ms total)
T1C08 142:479 JLINK_WriteReg(R1, 0x00000400)  returns 0x00 (0000ms, 0636ms total)
T1C08 142:479 JLINK_WriteReg(R2, 0x20000164)  returns 0x00 (0000ms, 0636ms total)
T1C08 142:479 JLINK_WriteReg(R3, 0x00000000)  returns 0x00 (0000ms, 0636ms total)
T1C08 142:479 JLINK_WriteReg(R4, 0x00000000)  returns 0x00 (0000ms, 0636ms total)
T1C08 142:479 JLINK_WriteReg(R5, 0x00000000)  returns 0x00 (0000ms, 0636ms total)
T1C08 142:479 JLINK_WriteReg(R6, 0x00000000)  returns 0x00 (0000ms, 0636ms total)
T1C08 142:479 JLINK_WriteReg(R7, 0x00000000)  returns 0x00 (0000ms, 0636ms total)
T1C08 142:479 JLINK_WriteReg(R8, 0x00000000)  returns 0x00 (0000ms, 0636ms total)
T1C08 142:479 JLINK_WriteReg(R9, 0x20000160)  returns 0x00 (0000ms, 0636ms total)
T1C08 142:479 JLINK_WriteReg(R10, 0x00000000)  returns 0x00 (0000ms, 0636ms total)
T1C08 142:479 JLINK_WriteReg(R11, 0x00000000)  returns 0x00 (0001ms, 0637ms total)
T1C08 142:480 JLINK_WriteReg(R12, 0x00000000)  returns 0x00 (0000ms, 0637ms total)
T1C08 142:480 JLINK_WriteReg(R13 (SP), 0x20001000)  returns 0x00 (0000ms, 0637ms total)
T1C08 142:480 JLINK_WriteReg(R14, 0x20000001)  returns 0x00 (0000ms, 0637ms total)
T1C08 142:480 JLINK_WriteReg(R15 (PC), 0x200000F4)  returns 0x00 (0000ms, 0637ms total)
T1C08 142:480 JLINK_WriteReg(XPSR, 0x01000000)  returns 0x00 (0000ms, 0637ms total)
T1C08 142:480 JLINK_WriteReg(MSP, 0x20001000)  returns 0x00 (0000ms, 0637ms total)
T1C08 142:480 JLINK_WriteReg(PSP, 0x20001000)  returns 0x00 (0000ms, 0637ms total)
T1C08 142:480 JLINK_WriteReg(CFBP, 0x00000000)  returns 0x00 (0000ms, 0637ms total)
T1C08 142:480 JLINK_SetBPEx(Addr = 0x20000000, Type = 0xFFFFFFF2)  returns 0x00000005 (0000ms, 0637ms total)
T1C08 142:480 JLINK_Go() -- CPU_ReadMem(4 bytes @ 0xE0001000) (0005ms, 0642ms total)
T1C08 142:485 JLINK_IsHalted()  returns FALSE (0001ms, 0643ms total)
T1C08 142:495 JLINK_IsHalted()  returns FALSE (0001ms, 0643ms total)
T1C08 142:497 JLINK_IsHalted()  returns FALSE (0001ms, 0643ms total)
T1C08 142:499 JLINK_IsHalted()  returns FALSE (0001ms, 0643ms total)
T1C08 142:501 JLINK_IsHalted()  returns FALSE (0001ms, 0644ms total)
T1C08 142:503 JLINK_IsHalted()  returns FALSE (0001ms, 0644ms total)
T1C08 142:505 JLINK_IsHalted()  returns FALSE (0001ms, 0644ms total)
T1C08 142:507 JLINK_IsHalted()  returns FALSE (0001ms, 0644ms total)
T1C08 142:509 JLINK_IsHalted()  returns FALSE (0001ms, 0644ms total)
T1C08 142:511 JLINK_IsHalted()  returns FALSE (0001ms, 0644ms total)
T1C08 142:513 JLINK_IsHalted()  returns FALSE (0001ms, 0644ms total)
T1C08 142:515 JLINK_IsHalted() -- CPU_ReadMem(2 bytes @ 0x20000000)  returns TRUE (0005ms, 0648ms total)
T1C08 142:520 JLINK_ReadReg(R15 (PC))  returns 0x20000000 (0000ms, 0643ms total)
T1C08 142:520 JLINK_ClrBPEx(BPHandle = 0x00000005)  returns 0x00 (0000ms, 0643ms total)
T1C08 142:520 JLINK_ReadReg(R0)  returns 0x00000000 (0000ms, 0643ms total)
T1C08 142:521 JLINK_WriteMem(0x20000164, 0x029C Bytes, ...) - Data: FE E7 00 BF FE E7 00 BF FE E7 70 47 70 47 70 47 ... -- CPU_WriteMem(668 bytes @ 0x20000164)  returns 0x29C (0008ms, 0651ms total)
T1C08 142:529 JLINK_WriteMem(0x20000400, 0x0164 Bytes, ...) - Data: C7 F8 07 46 02 F0 FC FF 02 46 EB A1 00 90 20 46 ... -- CPU_WriteMem(356 bytes @ 0x20000400)  returns 0x164 (0005ms, 0656ms total)
T1C08 142:534 JLINK_WriteReg(R0, 0x08000400)  returns 0x00 (0000ms, 0656ms total)
T1C08 142:534 JLINK_WriteReg(R1, 0x00000400)  returns 0x00 (0000ms, 0656ms total)
T1C08 142:534 JLINK_WriteReg(R2, 0x20000164)  returns 0x00 (0000ms, 0656ms total)
T1C08 142:534 JLINK_WriteReg(R3, 0x00000000)  returns 0x00 (0000ms, 0656ms total)
T1C08 142:534 JLINK_WriteReg(R4, 0x00000000)  returns 0x00 (0001ms, 0657ms total)
T1C08 142:535 JLINK_WriteReg(R5, 0x00000000)  returns 0x00 (0000ms, 0657ms total)
T1C08 142:535 JLINK_WriteReg(R6, 0x00000000)  returns 0x00 (0000ms, 0657ms total)
T1C08 142:535 JLINK_WriteReg(R7, 0x00000000)  returns 0x00 (0000ms, 0657ms total)
T1C08 142:535 JLINK_WriteReg(R8, 0x00000000)  returns 0x00 (0000ms, 0657ms total)
T1C08 142:535 JLINK_WriteReg(R9, 0x20000160)  returns 0x00 (0000ms, 0657ms total)
T1C08 142:535 JLINK_WriteReg(R10, 0x00000000)  returns 0x00 (0000ms, 0657ms total)
T1C08 142:535 JLINK_WriteReg(R11, 0x00000000)  returns 0x00 (0000ms, 0657ms total)
T1C08 142:535 JLINK_WriteReg(R12, 0x00000000)  returns 0x00 (0000ms, 0657ms total)
T1C08 142:535 JLINK_WriteReg(R13 (SP), 0x20001000)  returns 0x00 (0000ms, 0657ms total)
T1C08 142:535 JLINK_WriteReg(R14, 0x20000001)  returns 0x00 (0000ms, 0657ms total)
T1C08 142:535 JLINK_WriteReg(R15 (PC), 0x200000F4)  returns 0x00 (0000ms, 0657ms total)
T1C08 142:535 JLINK_WriteReg(XPSR, 0x01000000)  returns 0x00 (0000ms, 0657ms total)
T1C08 142:535 JLINK_WriteReg(MSP, 0x20001000)  returns 0x00 (0000ms, 0657ms total)
T1C08 142:535 JLINK_WriteReg(PSP, 0x20001000)  returns 0x00 (0000ms, 0657ms total)
T1C08 142:535 JLINK_WriteReg(CFBP, 0x00000000)  returns 0x00 (0000ms, 0657ms total)
T1C08 142:535 JLINK_SetBPEx(Addr = 0x20000000, Type = 0xFFFFFFF2)  returns 0x00000006 (0000ms, 0657ms total)
T1C08 142:535 JLINK_Go() -- CPU_ReadMem(4 bytes @ 0xE0001000) (0005ms, 0662ms total)
T1C08 142:540 JLINK_IsHalted()  returns FALSE (0001ms, 0663ms total)
T1C08 142:544 JLINK_IsHalted()  returns FALSE (0001ms, 0663ms total)
T1C08 142:546 JLINK_IsHalted()  returns FALSE (0001ms, 0663ms total)
T1C08 142:548 JLINK_IsHalted()  returns FALSE (0001ms, 0663ms total)
T1C08 142:550 JLINK_IsHalted()  returns FALSE (0001ms, 0663ms total)
T1C08 142:552 JLINK_IsHalted()  returns FALSE (0001ms, 0663ms total)
T1C08 142:554 JLINK_IsHalted()  returns FALSE (0001ms, 0663ms total)
T1C08 142:556 JLINK_IsHalted()  returns FALSE (0001ms, 0664ms total)
T1C08 142:558 JLINK_IsHalted()  returns FALSE (0001ms, 0664ms total)
T1C08 142:560 JLINK_IsHalted()  returns FALSE (0001ms, 0664ms total)
T1C08 142:562 JLINK_IsHalted()  returns FALSE (0001ms, 0664ms total)
T1C08 142:564 JLINK_IsHalted()  returns FALSE (0001ms, 0664ms total)
T1C08 142:566 JLINK_IsHalted()  returns FALSE (0001ms, 0664ms total)
T1C08 142:568 JLINK_IsHalted()  returns FALSE (0001ms, 0664ms total)
T1C08 142:570 JLINK_IsHalted()  returns FALSE (0001ms, 0664ms total)
T1C08 142:572 JLINK_IsHalted() -- CPU_ReadMem(2 bytes @ 0x20000000)  returns TRUE (0005ms, 0668ms total)
T1C08 142:577 JLINK_ReadReg(R15 (PC))  returns 0x20000000 (0000ms, 0663ms total)
T1C08 142:577 JLINK_ClrBPEx(BPHandle = 0x00000006)  returns 0x00 (0000ms, 0663ms total)
T1C08 142:577 JLINK_ReadReg(R0)  returns 0x00000000 (0000ms, 0663ms total)
T1C08 142:578 JLINK_WriteMem(0x20000164, 0x029C Bytes, ...) - Data: 78 E7 96 48 80 68 00 21 01 60 20 69 06 F0 96 FD ... -- CPU_WriteMem(668 bytes @ 0x20000164)  returns 0x29C (0008ms, 0671ms total)
T1C08 142:587 JLINK_WriteMem(0x20000400, 0x0164 Bytes, ...) - Data: 73 5F 64 65 63 69 64 20 3A 20 25 73 0A 00 00 00 ... -- CPU_WriteMem(356 bytes @ 0x20000400)  returns 0x164 (0004ms, 0675ms total)
T1C08 142:591 JLINK_WriteReg(R0, 0x08000800)  returns 0x00 (0000ms, 0675ms total)
T1C08 142:592 JLINK_WriteReg(R1, 0x00000400)  returns 0x00 (0000ms, 0675ms total)
T1C08 142:592 JLINK_WriteReg(R2, 0x20000164)  returns 0x00 (0000ms, 0675ms total)
T1C08 142:592 JLINK_WriteReg(R3, 0x00000000)  returns 0x00 (0000ms, 0675ms total)
T1C08 142:592 JLINK_WriteReg(R4, 0x00000000)  returns 0x00 (0000ms, 0675ms total)
T1C08 142:592 JLINK_WriteReg(R5, 0x00000000)  returns 0x00 (0000ms, 0675ms total)
T1C08 142:592 JLINK_WriteReg(R6, 0x00000000)  returns 0x00 (0000ms, 0675ms total)
T1C08 142:592 JLINK_WriteReg(R7, 0x00000000)  returns 0x00 (0000ms, 0675ms total)
T1C08 142:592 JLINK_WriteReg(R8, 0x00000000)  returns 0x00 (0000ms, 0675ms total)
T1C08 142:592 JLINK_WriteReg(R9, 0x20000160)  returns 0x00 (0000ms, 0675ms total)
T1C08 142:592 JLINK_WriteReg(R10, 0x00000000)  returns 0x00 (0000ms, 0675ms total)
T1C08 142:592 JLINK_WriteReg(R11, 0x00000000)  returns 0x00 (0000ms, 0675ms total)
T1C08 142:592 JLINK_WriteReg(R12, 0x00000000)  returns 0x00 (0000ms, 0675ms total)
T1C08 142:592 JLINK_WriteReg(R13 (SP), 0x20001000)  returns 0x00 (0000ms, 0675ms total)
T1C08 142:592 JLINK_WriteReg(R14, 0x20000001)  returns 0x00 (0000ms, 0675ms total)
T1C08 142:592 JLINK_WriteReg(R15 (PC), 0x200000F4)  returns 0x00 (0000ms, 0675ms total)
T1C08 142:592 JLINK_WriteReg(XPSR, 0x01000000)  returns 0x00 (0000ms, 0675ms total)
T1C08 142:592 JLINK_WriteReg(MSP, 0x20001000)  returns 0x00 (0000ms, 0675ms total)
T1C08 142:592 JLINK_WriteReg(PSP, 0x20001000)  returns 0x00 (0000ms, 0675ms total)
T1C08 142:592 JLINK_WriteReg(CFBP, 0x00000000)  returns 0x00 (0000ms, 0675ms total)
T1C08 142:592 JLINK_SetBPEx(Addr = 0x20000000, Type = 0xFFFFFFF2)  returns 0x00000007 (0000ms, 0675ms total)
T1C08 142:593 JLINK_Go() -- CPU_ReadMem(4 bytes @ 0xE0001000) (0004ms, 0680ms total)
T1C08 142:597 JLINK_IsHalted()  returns FALSE (0001ms, 0681ms total)
T1C08 142:603 JLINK_IsHalted()  returns FALSE (0001ms, 0681ms total)
T1C08 142:605 JLINK_IsHalted()  returns FALSE (0001ms, 0681ms total)
T1C08 142:607 JLINK_IsHalted()  returns FALSE (0001ms, 0681ms total)
T1C08 142:609 JLINK_IsHalted()  returns FALSE (0001ms, 0681ms total)
T1C08 142:611 JLINK_IsHalted()  returns FALSE (0001ms, 0681ms total)
T1C08 142:613 JLINK_IsHalted()  returns FALSE (0001ms, 0681ms total)
T1C08 142:615 JLINK_IsHalted()  returns FALSE (0000ms, 0680ms total)
T1C08 142:616 JLINK_IsHalted()  returns FALSE (0000ms, 0680ms total)
T1C08 142:617 JLINK_IsHalted()  returns FALSE (0000ms, 0680ms total)
T1C08 142:618 JLINK_IsHalted()  returns FALSE (0000ms, 0680ms total)
T1C08 142:619 JLINK_IsHalted()  returns FALSE (0000ms, 0680ms total)
T1C08 142:620 JLINK_IsHalted()  returns FALSE (0000ms, 0680ms total)
T1C08 142:621 JLINK_IsHalted()  returns FALSE (0000ms, 0680ms total)
T1C08 142:622 JLINK_IsHalted()  returns FALSE (0000ms, 0680ms total)
T1C08 142:623 JLINK_IsHalted()  returns FALSE (0000ms, 0680ms total)
T1C08 142:624 JLINK_IsHalted()  returns FALSE (0000ms, 0680ms total)
T1C08 142:625 JLINK_IsHalted()  returns FALSE (0000ms, 0680ms total)
T1C08 142:626 JLINK_IsHalted()  returns FALSE (0000ms, 0680ms total)
T1C08 142:627 JLINK_IsHalted()  returns FALSE (0000ms, 0680ms total)
T1C08 142:628 JLINK_IsHalted() -- CPU_ReadMem(2 bytes @ 0x20000000)  returns TRUE (0004ms, 0684ms total)
T1C08 142:632 JLINK_ReadReg(R15 (PC))  returns 0x20000000 (0000ms, 0680ms total)
T1C08 142:632 JLINK_ClrBPEx(BPHandle = 0x00000007)  returns 0x00 (0000ms, 0680ms total)
T1C08 142:632 JLINK_ReadReg(R0)  returns 0x00000000 (0000ms, 0680ms total)
T1C08 142:633 JLINK_WriteMem(0x20000164, 0x029C Bytes, ...) - Data: 43 FA C2 A0 07 F0 40 FA B4 98 23 46 4A 46 41 46 ... -- CPU_WriteMem(668 bytes @ 0x20000164)  returns 0x29C (0008ms, 0688ms total)
T1C08 142:642 JLINK_WriteMem(0x20000400, 0x0164 Bytes, ...) - Data: 08 60 91 49 08 70 82 49 08 60 00 20 44 49 08 80 ... -- CPU_WriteMem(356 bytes @ 0x20000400)  returns 0x164 (0004ms, 0693ms total)
T1C08 142:647 JLINK_WriteReg(R0, 0x08000C00)  returns 0x00 (0000ms, 0693ms total)
T1C08 142:647 JLINK_WriteReg(R1, 0x00000400)  returns 0x00 (0000ms, 0693ms total)
T1C08 142:647 JLINK_WriteReg(R2, 0x20000164)  returns 0x00 (0000ms, 0693ms total)
T1C08 142:647 JLINK_WriteReg(R3, 0x00000000)  returns 0x00 (0000ms, 0693ms total)
T1C08 142:647 JLINK_WriteReg(R4, 0x00000000)  returns 0x00 (0000ms, 0693ms total)
T1C08 142:647 JLINK_WriteReg(R5, 0x00000000)  returns 0x00 (0000ms, 0693ms total)
T1C08 142:647 JLINK_WriteReg(R6, 0x00000000)  returns 0x00 (0000ms, 0693ms total)
T1C08 142:647 JLINK_WriteReg(R7, 0x00000000)  returns 0x00 (0000ms, 0693ms total)
T1C08 142:647 JLINK_WriteReg(R8, 0x00000000)  returns 0x00 (0000ms, 0693ms total)
T1C08 142:647 JLINK_WriteReg(R9, 0x20000160)  returns 0x00 (0000ms, 0693ms total)
T1C08 142:647 JLINK_WriteReg(R10, 0x00000000)  returns 0x00 (0000ms, 0693ms total)
T1C08 142:647 JLINK_WriteReg(R11, 0x00000000)  returns 0x00 (0000ms, 0693ms total)
T1C08 142:647 JLINK_WriteReg(R12, 0x00000000)  returns 0x00 (0000ms, 0693ms total)
T1C08 142:647 JLINK_WriteReg(R13 (SP), 0x20001000)  returns 0x00 (0000ms, 0693ms total)
T1C08 142:647 JLINK_WriteReg(R14, 0x20000001)  returns 0x00 (0000ms, 0693ms total)
T1C08 142:647 JLINK_WriteReg(R15 (PC), 0x200000F4)  returns 0x00 (0000ms, 0693ms total)
T1C08 142:647 JLINK_WriteReg(XPSR, 0x01000000)  returns 0x00 (0000ms, 0693ms total)
T1C08 142:647 JLINK_WriteReg(MSP, 0x20001000)  returns 0x00 (0000ms, 0693ms total)
T1C08 142:647 JLINK_WriteReg(PSP, 0x20001000)  returns 0x00 (0001ms, 0694ms total)
T1C08 142:648 JLINK_WriteReg(CFBP, 0x00000000)  returns 0x00 (0000ms, 0694ms total)
T1C08 142:648 JLINK_SetBPEx(Addr = 0x20000000, Type = 0xFFFFFFF2)  returns 0x00000008 (0000ms, 0694ms total)
T1C08 142:648 JLINK_Go() -- CPU_ReadMem(4 bytes @ 0xE0001000) (0004ms, 0698ms total)
T1C08 142:652 JLINK_IsHalted()  returns FALSE (0001ms, 0699ms total)
T1C08 142:657 JLINK_IsHalted()  returns FALSE (0001ms, 0699ms total)
T1C08 142:659 JLINK_IsHalted()  returns FALSE (0001ms, 0699ms total)
T1C08 142:661 JLINK_IsHalted()  returns FALSE (0001ms, 0699ms total)
T1C08 142:663 JLINK_IsHalted()  returns FALSE (0001ms, 0699ms total)
T1C08 142:665 JLINK_IsHalted()  returns FALSE (0001ms, 0699ms total)
T1C08 142:667 JLINK_IsHalted()  returns FALSE (0001ms, 0699ms total)
T1C08 142:669 JLINK_IsHalted()  returns FALSE (0001ms, 0700ms total)
T1C08 142:671 JLINK_IsHalted()  returns FALSE (0001ms, 0700ms total)
T1C08 142:673 JLINK_IsHalted()  returns FALSE (0001ms, 0700ms total)
T1C08 142:675 JLINK_IsHalted()  returns FALSE (0001ms, 0700ms total)
T1C08 142:677 JLINK_IsHalted()  returns FALSE (0001ms, 0700ms total)
T1C08 142:679 JLINK_IsHalted()  returns FALSE (0001ms, 0700ms total)
T1C08 142:681 JLINK_IsHalted()  returns FALSE (0001ms, 0700ms total)
T1C08 142:683 JLINK_IsHalted() -- CPU_ReadMem(2 bytes @ 0x20000000)  returns TRUE (0005ms, 0704ms total)
T1C08 142:688 JLINK_ReadReg(R15 (PC))  returns 0x20000000 (0000ms, 0699ms total)
T1C08 142:688 JLINK_ClrBPEx(BPHandle = 0x00000008)  returns 0x00 (0000ms, 0699ms total)
T1C08 142:688 JLINK_ReadReg(R0)  returns 0x00000000 (0000ms, 0699ms total)
T1C08 142:689 JLINK_WriteMem(0x20000164, 0x029C Bytes, ...) - Data: 0A 25 73 20 0A 00 00 00 43 4C 4F 53 45 44 00 00 ... -- CPU_WriteMem(668 bytes @ 0x20000164)  returns 0x29C (0008ms, 0707ms total)
T1C08 142:697 JLINK_WriteMem(0x20000400, 0x0164 Bytes, ...) - Data: 18 78 00 06 5F 78 80 EA 07 40 9F 78 80 EA 07 20 ... -- CPU_WriteMem(356 bytes @ 0x20000400)  returns 0x164 (0005ms, 0712ms total)
T1C08 142:702 JLINK_WriteReg(R0, 0x08001000)  returns 0x00 (0000ms, 0712ms total)
T1C08 142:702 JLINK_WriteReg(R1, 0x00000400)  returns 0x00 (0001ms, 0713ms total)
T1C08 142:703 JLINK_WriteReg(R2, 0x20000164)  returns 0x00 (0000ms, 0713ms total)
T1C08 142:703 JLINK_WriteReg(R3, 0x00000000)  returns 0x00 (0000ms, 0713ms total)
T1C08 142:703 JLINK_WriteReg(R4, 0x00000000)  returns 0x00 (0000ms, 0713ms total)
T1C08 142:703 JLINK_WriteReg(R5, 0x00000000)  returns 0x00 (0000ms, 0713ms total)
T1C08 142:703 JLINK_WriteReg(R6, 0x00000000)  returns 0x00 (0000ms, 0713ms total)
T1C08 142:703 JLINK_WriteReg(R7, 0x00000000)  returns 0x00 (0000ms, 0713ms total)
T1C08 142:703 JLINK_WriteReg(R8, 0x00000000)  returns 0x00 (0000ms, 0713ms total)
T1C08 142:703 JLINK_WriteReg(R9, 0x20000160)  returns 0x00 (0000ms, 0713ms total)
T1C08 142:703 JLINK_WriteReg(R10, 0x00000000)  returns 0x00 (0000ms, 0713ms total)
T1C08 142:703 JLINK_WriteReg(R11, 0x00000000)  returns 0x00 (0000ms, 0713ms total)
T1C08 142:703 JLINK_WriteReg(R12, 0x00000000)  returns 0x00 (0000ms, 0713ms total)
T1C08 142:703 JLINK_WriteReg(R13 (SP), 0x20001000)  returns 0x00 (0000ms, 0713ms total)
T1C08 142:703 JLINK_WriteReg(R14, 0x20000001)  returns 0x00 (0000ms, 0713ms total)
T1C08 142:703 JLINK_WriteReg(R15 (PC), 0x200000F4)  returns 0x00 (0000ms, 0713ms total)
T1C08 142:703 JLINK_WriteReg(XPSR, 0x01000000)  returns 0x00 (0000ms, 0713ms total)
T1C08 142:703 JLINK_WriteReg(MSP, 0x20001000)  returns 0x00 (0000ms, 0713ms total)
T1C08 142:703 JLINK_WriteReg(PSP, 0x20001000)  returns 0x00 (0000ms, 0713ms total)
T1C08 142:703 JLINK_WriteReg(CFBP, 0x00000000)  returns 0x00 (0000ms, 0713ms total)
T1C08 142:703 JLINK_SetBPEx(Addr = 0x20000000, Type = 0xFFFFFFF2)  returns 0x00000009 (0000ms, 0713ms total)
T1C08 142:703 JLINK_Go() -- CPU_ReadMem(4 bytes @ 0xE0001000) (0005ms, 0718ms total)
T1C08 142:708 JLINK_IsHalted()  returns FALSE (0001ms, 0719ms total)
T1C08 142:716 JLINK_IsHalted()  returns FALSE (0001ms, 0719ms total)
T1C08 142:718 JLINK_IsHalted()  returns FALSE (0001ms, 0719ms total)
T1C08 142:720 JLINK_IsHalted()  returns FALSE (0001ms, 0719ms total)
T1C08 142:722 JLINK_IsHalted()  returns FALSE (0001ms, 0719ms total)
T1C08 142:724 JLINK_IsHalted()  returns FALSE (0001ms, 0719ms total)
T1C08 142:726 JLINK_IsHalted()  returns FALSE (0001ms, 0719ms total)
T1C08 142:728 JLINK_IsHalted()  returns FALSE (0001ms, 0719ms total)
T1C08 142:730 JLINK_IsHalted()  returns FALSE (0001ms, 0719ms total)
T1C08 142:732 JLINK_IsHalted()  returns FALSE (0001ms, 0719ms total)
T1C08 142:734 JLINK_IsHalted()  returns FALSE (0001ms, 0719ms total)
T1C08 142:736 JLINK_IsHalted()  returns FALSE (0001ms, 0719ms total)
T1C08 142:738 JLINK_IsHalted() -- CPU_ReadMem(2 bytes @ 0x20000000)  returns TRUE (0005ms, 0723ms total)
T1C08 142:743 JLINK_ReadReg(R15 (PC))  returns 0x20000000 (0000ms, 0718ms total)
T1C08 142:743 JLINK_ClrBPEx(BPHandle = 0x00000009)  returns 0x00 (0000ms, 0718ms total)
T1C08 142:743 JLINK_ReadReg(R0)  returns 0x00000000 (0000ms, 0718ms total)
T1C08 142:744 JLINK_WriteMem(0x20000164, 0x029C Bytes, ...) - Data: 0F 6A C8 68 78 40 48 62 70 1C 06 46 08 28 01 D1 ... -- CPU_WriteMem(668 bytes @ 0x20000164)  returns 0x29C (0008ms, 0726ms total)
T1C08 142:752 JLINK_WriteMem(0x20000400, 0x0164 Bytes, ...) - Data: 2A 4A 52 F8 21 10 48 40 A0 60 E0 68 00 0E 22 49 ... -- CPU_WriteMem(356 bytes @ 0x20000400)  returns 0x164 (0005ms, 0731ms total)
T1C08 142:758 JLINK_WriteReg(R0, 0x08001400)  returns 0x00 (0000ms, 0731ms total)
T1C08 142:758 JLINK_WriteReg(R1, 0x00000400)  returns 0x00 (0000ms, 0731ms total)
T1C08 142:758 JLINK_WriteReg(R2, 0x20000164)  returns 0x00 (0000ms, 0731ms total)
T1C08 142:758 JLINK_WriteReg(R3, 0x00000000)  returns 0x00 (0000ms, 0731ms total)
T1C08 142:758 JLINK_WriteReg(R4, 0x00000000)  returns 0x00 (0000ms, 0731ms total)
T1C08 142:758 JLINK_WriteReg(R5, 0x00000000)  returns 0x00 (0000ms, 0731ms total)
T1C08 142:758 JLINK_WriteReg(R6, 0x00000000)  returns 0x00 (0000ms, 0731ms total)
T1C08 142:758 JLINK_WriteReg(R7, 0x00000000)  returns 0x00 (0000ms, 0731ms total)
T1C08 142:758 JLINK_WriteReg(R8, 0x00000000)  returns 0x00 (0000ms, 0731ms total)
T1C08 142:758 JLINK_WriteReg(R9, 0x20000160)  returns 0x00 (0000ms, 0731ms total)
T1C08 142:758 JLINK_WriteReg(R10, 0x00000000)  returns 0x00 (0001ms, 0732ms total)
T1C08 142:759 JLINK_WriteReg(R11, 0x00000000)  returns 0x00 (0000ms, 0732ms total)
T1C08 142:759 JLINK_WriteReg(R12, 0x00000000)  returns 0x00 (0000ms, 0732ms total)
T1C08 142:759 JLINK_WriteReg(R13 (SP), 0x20001000)  returns 0x00 (0000ms, 0732ms total)
T1C08 142:759 JLINK_WriteReg(R14, 0x20000001)  returns 0x00 (0000ms, 0732ms total)
T1C08 142:759 JLINK_WriteReg(R15 (PC), 0x200000F4)  returns 0x00 (0000ms, 0732ms total)
T1C08 142:759 JLINK_WriteReg(XPSR, 0x01000000)  returns 0x00 (0000ms, 0732ms total)
T1C08 142:759 JLINK_WriteReg(MSP, 0x20001000)  returns 0x00 (0000ms, 0732ms total)
T1C08 142:759 JLINK_WriteReg(PSP, 0x20001000)  returns 0x00 (0000ms, 0732ms total)
T1C08 142:759 JLINK_WriteReg(CFBP, 0x00000000)  returns 0x00 (0000ms, 0732ms total)
T1C08 142:759 JLINK_SetBPEx(Addr = 0x20000000, Type = 0xFFFFFFF2)  returns 0x0000000A (0000ms, 0732ms total)
T1C08 142:759 JLINK_Go() -- CPU_ReadMem(4 bytes @ 0xE0001000) (0004ms, 0736ms total)
T1C08 142:763 JLINK_IsHalted()  returns FALSE (0001ms, 0737ms total)
T1C08 142:768 JLINK_IsHalted()  returns FALSE (0001ms, 0737ms total)
T1C08 142:770 JLINK_IsHalted()  returns FALSE (0001ms, 0737ms total)
T1C08 142:772 JLINK_IsHalted()  returns FALSE (0001ms, 0737ms total)
T1C08 142:774 JLINK_IsHalted()  returns FALSE (0001ms, 0737ms total)
T1C08 142:776 JLINK_IsHalted()  returns FALSE (0001ms, 0737ms total)
T1C08 142:778 JLINK_IsHalted()  returns FALSE (0001ms, 0737ms total)
T1C08 142:780 JLINK_IsHalted()  returns FALSE (0001ms, 0737ms total)
T1C08 142:782 JLINK_IsHalted()  returns FALSE (0001ms, 0737ms total)
T1C08 142:784 JLINK_IsHalted()  returns FALSE (0001ms, 0737ms total)
T1C08 142:786 JLINK_IsHalted()  returns FALSE (0001ms, 0737ms total)
T1C08 142:788 JLINK_IsHalted()  returns FALSE (0000ms, 0736ms total)
T1C08 142:789 JLINK_IsHalted()  returns FALSE (0000ms, 0736ms total)
T1C08 142:790 JLINK_IsHalted()  returns FALSE (0000ms, 0736ms total)
T1C08 142:791 JLINK_IsHalted()  returns FALSE (0000ms, 0736ms total)
T1C08 142:792 JLINK_IsHalted()  returns FALSE (0001ms, 0737ms total)
T1C08 142:794 JLINK_IsHalted() -- CPU_ReadMem(2 bytes @ 0x20000000)  returns TRUE (0005ms, 0741ms total)
T1C08 142:799 JLINK_ReadReg(R15 (PC))  returns 0x20000000 (0000ms, 0736ms total)
T1C08 142:799 JLINK_ClrBPEx(BPHandle = 0x0000000A)  returns 0x00 (0000ms, 0736ms total)
T1C08 142:799 JLINK_ReadReg(R0)  returns 0x00000000 (0000ms, 0736ms total)
T1C08 142:800 JLINK_WriteMem(0x20000164, 0x029C Bytes, ...) - Data: DF F8 4C E8 5E F8 2B B0 8A EA 0B 0A 09 F0 FF 0B ... -- CPU_WriteMem(668 bytes @ 0x20000164)  returns 0x29C (0008ms, 0744ms total)
T1C08 142:808 JLINK_WriteMem(0x20000400, 0x0164 Bytes, ...) - Data: 5E F8 2B B0 0B F4 7F 0B 8A EA 0B 0A C6 F3 07 2B ... -- CPU_WriteMem(356 bytes @ 0x20000400)  returns 0x164 (0005ms, 0749ms total)
T1C08 142:813 JLINK_WriteReg(R0, 0x08001800)  returns 0x00 (0000ms, 0749ms total)
T1C08 142:813 JLINK_WriteReg(R1, 0x00000400)  returns 0x00 (0000ms, 0749ms total)
T1C08 142:813 JLINK_WriteReg(R2, 0x20000164)  returns 0x00 (0000ms, 0749ms total)
T1C08 142:813 JLINK_WriteReg(R3, 0x00000000)  returns 0x00 (0000ms, 0749ms total)
T1C08 142:813 JLINK_WriteReg(R4, 0x00000000)  returns 0x00 (0000ms, 0749ms total)
T1C08 142:813 JLINK_WriteReg(R5, 0x00000000)  returns 0x00 (0001ms, 0750ms total)
T1C08 142:814 JLINK_WriteReg(R6, 0x00000000)  returns 0x00 (0000ms, 0750ms total)
T1C08 142:814 JLINK_WriteReg(R7, 0x00000000)  returns 0x00 (0000ms, 0750ms total)
T1C08 142:814 JLINK_WriteReg(R8, 0x00000000)  returns 0x00 (0000ms, 0750ms total)
T1C08 142:814 JLINK_WriteReg(R9, 0x20000160)  returns 0x00 (0000ms, 0750ms total)
T1C08 142:814 JLINK_WriteReg(R10, 0x00000000)  returns 0x00 (0000ms, 0750ms total)
T1C08 142:814 JLINK_WriteReg(R11, 0x00000000)  returns 0x00 (0000ms, 0750ms total)
T1C08 142:814 JLINK_WriteReg(R12, 0x00000000)  returns 0x00 (0000ms, 0750ms total)
T1C08 142:814 JLINK_WriteReg(R13 (SP), 0x20001000)  returns 0x00 (0000ms, 0750ms total)
T1C08 142:814 JLINK_WriteReg(R14, 0x20000001)  returns 0x00 (0000ms, 0750ms total)
T1C08 142:814 JLINK_WriteReg(R15 (PC), 0x200000F4)  returns 0x00 (0000ms, 0750ms total)
T1C08 142:814 JLINK_WriteReg(XPSR, 0x01000000)  returns 0x00 (0000ms, 0750ms total)
T1C08 142:814 JLINK_WriteReg(MSP, 0x20001000)  returns 0x00 (0000ms, 0750ms total)
T1C08 142:814 JLINK_WriteReg(PSP, 0x20001000)  returns 0x00 (0000ms, 0750ms total)
T1C08 142:814 JLINK_WriteReg(CFBP, 0x00000000)  returns 0x00 (0000ms, 0750ms total)
T1C08 142:814 JLINK_SetBPEx(Addr = 0x20000000, Type = 0xFFFFFFF2)  returns 0x0000000B (0000ms, 0750ms total)
T1C08 142:814 JLINK_Go() -- CPU_ReadMem(4 bytes @ 0xE0001000) (0004ms, 0754ms total)
T1C08 142:819 JLINK_IsHalted()  returns FALSE (0000ms, 0754ms total)
T1C08 142:821 JLINK_IsHalted()  returns FALSE (0001ms, 0755ms total)
T1C08 142:823 JLINK_IsHalted()  returns FALSE (0001ms, 0755ms total)
T1C08 142:825 JLINK_IsHalted()  returns FALSE (0001ms, 0755ms total)
T1C08 142:827 JLINK_IsHalted()  returns FALSE (0001ms, 0755ms total)
T1C08 142:829 JLINK_IsHalted()  returns FALSE (0001ms, 0755ms total)
T1C08 142:831 JLINK_IsHalted()  returns FALSE (0001ms, 0755ms total)
T1C08 142:833 JLINK_IsHalted()  returns FALSE (0000ms, 0754ms total)
T1C08 142:834 JLINK_IsHalted()  returns FALSE (0000ms, 0754ms total)
T1C08 142:835 JLINK_IsHalted()  returns FALSE (0000ms, 0754ms total)
T1C08 142:836 JLINK_IsHalted()  returns FALSE (0000ms, 0754ms total)
T1C08 142:837 JLINK_IsHalted()  returns FALSE (0000ms, 0754ms total)
T1C08 142:838 JLINK_IsHalted()  returns FALSE (0000ms, 0754ms total)
T1C08 142:839 JLINK_IsHalted()  returns FALSE (0000ms, 0754ms total)
T1C08 142:840 JLINK_IsHalted()  returns FALSE (0000ms, 0754ms total)
T1C08 142:841 JLINK_IsHalted()  returns FALSE (0000ms, 0754ms total)
T1C08 142:842 JLINK_IsHalted()  returns FALSE (0000ms, 0754ms total)
T1C08 142:843 JLINK_IsHalted()  returns FALSE (0000ms, 0754ms total)
T1C08 142:844 JLINK_IsHalted()  returns FALSE (0000ms, 0754ms total)
T1C08 142:845 JLINK_IsHalted()  returns FALSE (0000ms, 0754ms total)
T1C08 142:846 JLINK_IsHalted()  returns FALSE (0000ms, 0754ms total)
T1C08 142:847 JLINK_IsHalted()  returns FALSE (0000ms, 0754ms total)
T1C08 142:848 JLINK_IsHalted()  returns FALSE (0000ms, 0754ms total)
T1C08 142:849 JLINK_IsHalted() -- CPU_ReadMem(2 bytes @ 0x20000000)  returns TRUE (0004ms, 0758ms total)
T1C08 142:853 JLINK_ReadReg(R15 (PC))  returns 0x20000000 (0000ms, 0754ms total)
T1C08 142:853 JLINK_ClrBPEx(BPHandle = 0x0000000B)  returns 0x00 (0000ms, 0754ms total)
T1C08 142:853 JLINK_ReadReg(R0)  returns 0x00000000 (0000ms, 0754ms total)
T1C08 142:854 JLINK_WriteMem(0x20000164, 0x029C Bytes, ...) - Data: 04 A0 4F EA 0A 6B 93 F8 05 A0 8B EA 0A 4B 93 F8 ... -- CPU_WriteMem(668 bytes @ 0x20000164)  returns 0x29C (0008ms, 0762ms total)
T1C08 142:862 JLINK_WriteMem(0x20000400, 0x0164 Bytes, ...) - Data: 5E F8 2B B0 8A EA 0B 0A 02 F0 FF 0B DF F8 B8 E1 ... -- CPU_WriteMem(356 bytes @ 0x20000400)  returns 0x164 (0005ms, 0767ms total)
T1C08 142:867 JLINK_WriteReg(R0, 0x08001C00)  returns 0x00 (0000ms, 0767ms total)
T1C08 142:867 JLINK_WriteReg(R1, 0x00000400)  returns 0x00 (0000ms, 0767ms total)
T1C08 142:867 JLINK_WriteReg(R2, 0x20000164)  returns 0x00 (0000ms, 0767ms total)
T1C08 142:867 JLINK_WriteReg(R3, 0x00000000)  returns 0x00 (0001ms, 0768ms total)
T1C08 142:868 JLINK_WriteReg(R4, 0x00000000)  returns 0x00 (0000ms, 0768ms total)
T1C08 142:868 JLINK_WriteReg(R5, 0x00000000)  returns 0x00 (0000ms, 0768ms total)
T1C08 142:868 JLINK_WriteReg(R6, 0x00000000)  returns 0x00 (0000ms, 0768ms total)
T1C08 142:868 JLINK_WriteReg(R7, 0x00000000)  returns 0x00 (0000ms, 0768ms total)
T1C08 142:868 JLINK_WriteReg(R8, 0x00000000)  returns 0x00 (0000ms, 0768ms total)
T1C08 142:868 JLINK_WriteReg(R9, 0x20000160)  returns 0x00 (0000ms, 0768ms total)
T1C08 142:868 JLINK_WriteReg(R10, 0x00000000)  returns 0x00 (0000ms, 0768ms total)
T1C08 142:868 JLINK_WriteReg(R11, 0x00000000)  returns 0x00 (0000ms, 0768ms total)
T1C08 142:868 JLINK_WriteReg(R12, 0x00000000)  returns 0x00 (0000ms, 0768ms total)
T1C08 142:868 JLINK_WriteReg(R13 (SP), 0x20001000)  returns 0x00 (0000ms, 0768ms total)
T1C08 142:868 JLINK_WriteReg(R14, 0x20000001)  returns 0x00 (0000ms, 0768ms total)
T1C08 142:868 JLINK_WriteReg(R15 (PC), 0x200000F4)  returns 0x00 (0000ms, 0768ms total)
T1C08 142:868 JLINK_WriteReg(XPSR, 0x01000000)  returns 0x00 (0000ms, 0768ms total)
T1C08 142:868 JLINK_WriteReg(MSP, 0x20001000)  returns 0x00 (0000ms, 0768ms total)
T1C08 142:868 JLINK_WriteReg(PSP, 0x20001000)  returns 0x00 (0000ms, 0768ms total)
T1C08 142:868 JLINK_WriteReg(CFBP, 0x00000000)  returns 0x00 (0000ms, 0768ms total)
T1C08 142:868 JLINK_SetBPEx(Addr = 0x20000000, Type = 0xFFFFFFF2)  returns 0x0000000C (0000ms, 0768ms total)
T1C08 142:868 JLINK_Go() -- CPU_ReadMem(4 bytes @ 0xE0001000) (0005ms, 0773ms total)
T1C08 142:873 JLINK_IsHalted()  returns FALSE (0001ms, 0774ms total)
T1C08 142:880 JLINK_IsHalted()  returns FALSE (0001ms, 0774ms total)
T1C08 142:882 JLINK_IsHalted()  returns FALSE (0001ms, 0774ms total)
T1C08 142:884 JLINK_IsHalted()  returns FALSE (0001ms, 0774ms total)
T1C08 142:886 JLINK_IsHalted()  returns FALSE (0001ms, 0774ms total)
T1C08 142:888 JLINK_IsHalted()  returns FALSE (0001ms, 0774ms total)
T1C08 142:890 JLINK_IsHalted()  returns FALSE (0001ms, 0774ms total)
T1C08 142:892 JLINK_IsHalted()  returns FALSE (0001ms, 0774ms total)
T1C08 142:894 JLINK_IsHalted()  returns FALSE (0001ms, 0774ms total)
T1C08 142:896 JLINK_IsHalted()  returns FALSE (0001ms, 0774ms total)
T1C08 142:898 JLINK_IsHalted()  returns FALSE (0001ms, 0774ms total)
T1C08 142:903 JLINK_IsHalted() -- CPU_ReadMem(2 bytes @ 0x20000000)  returns TRUE (0005ms, 0778ms total)
T1C08 142:908 JLINK_ReadReg(R15 (PC))  returns 0x20000000 (0000ms, 0773ms total)
T1C08 142:908 JLINK_ClrBPEx(BPHandle = 0x0000000C)  returns 0x00 (0000ms, 0773ms total)
T1C08 142:908 JLINK_ReadReg(R0)  returns 0x00000000 (0000ms, 0773ms total)
T1C08 142:909 JLINK_WriteMem(0x20000164, 0x029C Bytes, ...) - Data: 68 B0 C4 F3 07 2E 1B F8 0E B0 8A EA 0B 2A 02 F0 ... -- CPU_WriteMem(668 bytes @ 0x20000164)  returns 0x29C (0009ms, 0782ms total)
T1C08 142:918 JLINK_WriteMem(0x20000400, 0x0164 Bytes, ...) - Data: 06 90 B5 A0 05 F0 F2 FE 30 E0 06 98 20 30 06 F0 ... -- CPU_WriteMem(356 bytes @ 0x20000400)  returns 0x164 (0005ms, 0787ms total)
T1C08 142:923 JLINK_WriteReg(R0, 0x08002000)  returns 0x00 (0000ms, 0787ms total)
T1C08 142:923 JLINK_WriteReg(R1, 0x00000400)  returns 0x00 (0000ms, 0787ms total)
T1C08 142:923 JLINK_WriteReg(R2, 0x20000164)  returns 0x00 (0000ms, 0787ms total)
T1C08 142:923 JLINK_WriteReg(R3, 0x00000000)  returns 0x00 (0000ms, 0787ms total)
T1C08 142:923 JLINK_WriteReg(R4, 0x00000000)  returns 0x00 (0000ms, 0787ms total)
T1C08 142:923 JLINK_WriteReg(R5, 0x00000000)  returns 0x00 (0000ms, 0787ms total)
T1C08 142:923 JLINK_WriteReg(R6, 0x00000000)  returns 0x00 (0000ms, 0787ms total)
T1C08 142:923 JLINK_WriteReg(R7, 0x00000000)  returns 0x00 (0000ms, 0787ms total)
T1C08 142:923 JLINK_WriteReg(R8, 0x00000000)  returns 0x00 (0000ms, 0787ms total)
T1C08 142:923 JLINK_WriteReg(R9, 0x20000160)  returns 0x00 (0000ms, 0787ms total)
T1C08 142:923 JLINK_WriteReg(R10, 0x00000000)  returns 0x00 (0000ms, 0787ms total)
T1C08 142:923 JLINK_WriteReg(R11, 0x00000000)  returns 0x00 (0000ms, 0787ms total)
T1C08 142:923 JLINK_WriteReg(R12, 0x00000000)  returns 0x00 (0000ms, 0787ms total)
T1C08 142:923 JLINK_WriteReg(R13 (SP), 0x20001000)  returns 0x00 (0000ms, 0787ms total)
